
**** 12/15/24 14:47:57 ******* PSpice Lite (March 2016) ******* ID# 10813 ****

 ** Profile: "SCHEMATIC1-dswaf"  [ E:\P1_2024_433E_Popescu_Vlad_Gabriel_GSD_22_Simulator\Schematics\sch_sim-pspicefiles\schematic1\ds


 ****     CIRCUIT DESCRIPTION


******************************************************************************




** Creating circuit file "dswaf.cir" 
** WARNING: THIS AUTOMATICALLY GENERATED FILE MAY BE OVERWRITTEN BY SUBSEQUENT SIMULATIONS

*Libraries: 
* Profile Libraries :
* Local Libraries :
.LIB "../../../lib_modelepspice_anexa_1/modele_a1_lib/bc856b.lib" 
.LIB "../../../lib_modelepspice_anexa_1/modele_a1_lib/bc846b.lib" 
.LIB "../../../lib_modelepspice_anexa_1/modele_a1_lib/bc817-25.lib" 
.LIB "../../../lib_modelepspice_anexa_1/modele_a1_lib/bc807-25.lib" 
.LIB "../../../lib_modelepspice_anexa_1/modele_a1_lib/1n4148.lib" 
* From [PSPICE NETLIST] section of C:\Users\Popescu Gabriel\AppData\Roaming\SPB_Data\cdssetup\OrCAD_PSpice\17.2.0\PSpice.ini file:
.lib "nomd.lib" 

*Analysis directives: 
.TRAN  0 3m 0 10u 
.OPTIONS ADVCONV
.PROBE64 V(alias(*)) I(alias(*)) W(alias(*)) D(alias(*)) NOISE(alias(*)) 
.INC "..\SCHEMATIC1.net" 



**** INCLUDING SCHEMATIC1.net ****
* source SCH_SIM
R_RL1         N179478 N204351  10k  
R_RL2         N179538 N179478  10k  
R_RL3         0 N179538  2k  
X_U6         N182520 VEE 1N4148 
V_V1         VCC 0 10
R_R12         0 N182362  1k TC=0,0 
X_U5         VCC N182362 1N4148 
R_R13         0 N182362  1k TC=0,0 
R_R15         N182520 0  1k TC=0,0 
V_V2         0 VEE 10
R_R14         N182520 0  1k TC=0,0 
X_Pamplit         N206838 N206838 N204351 POT PARAMS: SET=0.14 VALUE=500k
Q_Q3         N209348 N209266 N209208 QBC807-25 
R_R1         0 N209266  6.8k TC=0,0 
R_R6         N210113 VCC  100 TC=0,0 
R_R3         N209576 0  1k TC=0,0 
Q_Q8         VCC N209348 N206838 QBC817-25 
Q_Q1         N209266 N209266 N209196 QBC807-25 
Q_Q6         N209756 N209622 VEE QBC817-25 
Q_Q5         VEE N209566 N209282 QBC807-25 
Q_Q2         N209282 N209266 N210113 QBC807-25 
C_C1         0 N209566  100n  TC=0,0 
R_R4         N206838 N209576  1k TC=0,0 
R_R5         N209196 VCC  100 TC=0,0 
Q_Q4         N209622 N209576 N209282 QBC807-25 
R_R7         VEE N209622  1.5k TC=0,0 
Q_Q7         VEE N209756 N206838 QBC807-25 
R_R100         N209208 VCC  100 TC=0,0 
X_Pfrecv         N209566 N209566 N206838 POT PARAMS: SET=0.021 VALUE=10k
X_U9         N216440 N209348 1N4148 
X_U10         N209756 N216440 1N4148 

**** RESUMING dswaf.cir ****
.END

**** 12/15/24 14:47:57 ******* PSpice Lite (March 2016) ******* ID# 10813 ****

 ** Profile: "SCHEMATIC1-dswaf"  [ E:\P1_2024_433E_Popescu_Vlad_Gabriel_GSD_22_Simulator\Schematics\sch_sim-pspicefiles\schematic1\ds


 ****     Diode MODEL PARAMETERS


******************************************************************************




               X_U6.1N4148     X_U5.1N4148     X_U9.1N4148     X_U10.1N4148    
          IS    4.352000E-09    4.352000E-09    4.352000E-09    4.352000E-09 
           N    1.906           1.906           1.906           1.906        
          BV  110             110             110             110            
         IBV  100.000000E-06  100.000000E-06  100.000000E-06  100.000000E-06 
          RS     .6458           .6458           .6458           .6458       
          TT    3.480000E-09    3.480000E-09    3.480000E-09    3.480000E-09 
         CJO  704.800000E-15  704.800000E-15  704.800000E-15  704.800000E-15 
          VJ     .869            .869            .869            .869        
           M     .03             .03             .03             .03         


**** 12/15/24 14:47:57 ******* PSpice Lite (March 2016) ******* ID# 10813 ****

 ** Profile: "SCHEMATIC1-dswaf"  [ E:\P1_2024_433E_Popescu_Vlad_Gabriel_GSD_22_Simulator\Schematics\sch_sim-pspicefiles\schematic1\ds


 ****     BJT MODEL PARAMETERS


******************************************************************************




               QBC817-25       QBC807-25       
               NPN             PNP             
       LEVEL    1               1            
          IS   91.980000E-15  108.000000E-15 
          BF  338.8           385.7          
          NF    1.003            .99         
         VAF  107.9            31.29         
         IKF     .4913           .3603       
         ISE  446.800000E-18   27.130000E-15 
          NE    1.65            1.4          
          BR   29.48           20.57         
          NR    1.002            .9849       
         VAR   25              11.62         
         IKR     .193            .054        
         ISC    5.109000E-15  506.200000E-15 
          NC    1.071           1.295        
         ISS    0               0            
          RB    1               1            
         RBM    1                .5          
         IRB    1.000000E+03    1.000000E-06 
          RE     .2126           .1415       
          RC     .143            .2623       
         CJE   38.250000E-12   51.140000E-12 
         VJE     .7004           .8911       
         MJE     .364            .4417       
         CJC   12.700000E-12   26.560000E-12 
         VJC     .4431           .62         
         MJC     .3983           .4836       
        XCJC     .4555           .459        
         CJS    0               0            
         VJS     .75             .75         
         MJS     .333            .333        
          FC     .905            .99         
          TF  522.900000E-12  735.900000E-12 
         XTF  219.7             1.859        
         VTF    3.502           3.813        
         ITF    7.257            .4393       
          TR   70.000000E-12   50.000000E-09 
          KF    0               0            
          AF    1               1            
          CN    2.42            2.2          
           D     .87             .52         


**** 12/15/24 14:47:57 ******* PSpice Lite (March 2016) ******* ID# 10813 ****

 ** Profile: "SCHEMATIC1-dswaf"  [ E:\P1_2024_433E_Popescu_Vlad_Gabriel_GSD_22_Simulator\Schematics\sch_sim-pspicefiles\schematic1\ds


 ****     INITIAL TRANSIENT SOLUTION       TEMPERATURE =   27.000 DEG C


******************************************************************************



 NODE   VOLTAGE     NODE   VOLTAGE     NODE   VOLTAGE     NODE   VOLTAGE


(  VCC)   10.0000  (  VEE)  -10.0000  (N179478)    -.0060                       

(N179538)-998.3E-06                   (N182362)    9.2357                       

(N182520)   -9.2357                   (N204351)    -.0110                       

(N206838)    -.0459                   (N209196)    9.8644                       

(N209208)    9.8589                   (N209266)    9.2674                       

(N209282)     .5363                   (N209348)     .7819                       

(N209566)    -.0454                   (N209576)    -.0225                       

(N209622)   -9.3978                   (N209756)    -.8344                       

(N210113)    9.8588                   (N216440)    -.0262                   




    VOLTAGE SOURCE CURRENTS
    NAME         CURRENT

    V_V1        -3.360E-01
    V_V2        -3.346E-01

    TOTAL POWER DISSIPATION   6.71E+00  WATTS



          JOB CONCLUDED

**** 12/15/24 14:47:57 ******* PSpice Lite (March 2016) ******* ID# 10813 ****

 ** Profile: "SCHEMATIC1-dswaf"  [ E:\P1_2024_433E_Popescu_Vlad_Gabriel_GSD_22_Simulator\Schematics\sch_sim-pspicefiles\schematic1\ds


 ****     JOB STATISTICS SUMMARY


******************************************************************************



  Total job time (using Solver 1)   =        1.00
